
T1C04 001:043 SEGGER J-Link V5.02a Log File (0001ms, 0388ms total)
T1C04 001:043 DLL Compiled: Sep  4 2015 18:49:27 (0001ms, 0388ms total)
T1C04 001:043 Logging started @ 2015-09-23 02:53 (0001ms, 0388ms total)
T1C04 001:044 JLINK_SetWarnOutHandler(...) (0000ms, 0388ms total)
T1C04 001:044 JLINK_OpenEx(...)
Firmware: J-Link ARM-OB STM32 compiled Aug 22 2012 19:52:04
Hardware: V7.00
S/N: 20090928
Feature(s): RDI,FlashDL,FlashBP,JFlash,GDBFull  returns O.K. (0262ms, 0650ms total)
T1C04 001:306 JLINK_SetErrorOutHandler(...) (0000ms, 0650ms total)
T1C04 001:306 JLINK_ExecCommand("ProjectFile = "C:\Users\pc\Documents\곽현철\공모전\창업성장기술개발사업\쏘오쓰으으으\wifitest final\Project\CameraLCDWIFI-141208\MDK-ARM\JLinkSettings.ini"", ...)  returns 0x00 (0000ms, 0650ms total)
T1C04 001:311 JLINK_ExecCommand("Device = STM32F407VG", ...)Device "STM32F407VG" selected.  returns 0x00 (0009ms, 0659ms total)
T1C04 001:320 JLINK_ExecCommand("DisableConnectionTimeout", ...)  returns 0x01 (0000ms, 0659ms total)
T1C04 001:320 JLINK_TIF_Select(JLINKARM_TIF_SWD)  returns 0x00 (0002ms, 0661ms total)
T1C04 001:322 JLINK_SetSpeed(10000) (0000ms, 0661ms total)
T1C04 001:322 JLINK_GetHardwareVersion()  returns 0x11170 (0000ms, 0661ms total)
T1C04 001:322 JLINK_GetDLLVersion()  returns 50201 (0000ms, 0661ms total)
T1C04 001:322 JLINK_GetFirmwareString(...) (0000ms, 0661ms total)
T1C04 001:327 JLINK_GetDLLVersion()  returns 50201 (0000ms, 0661ms total)
T1C04 001:327 JLINK_GetCompileDateTime() (0000ms, 0661ms total)
T1C04 001:328 JLINK_GetFirmwareString(...) (0000ms, 0661ms total)
T1C04 001:329 JLINK_GetHardwareVersion()  returns 0x11170 (0000ms, 0661ms total)
T1C04 001:334 JLINK_GetId() >0x108 TIF>Found SWD-DP with ID 0x2BA01477 >0x0D TIF> >0x28 TIF> >0x0D TIF> >0x28 TIF> >0x0D TIF> >0x21 TIF> >0x0D TIF> >0x28 TIF> >0x0D TIF> >0x28 TIF> >0x0D TIF> >0x28 TIF> >0x0D TIF> >0x21 TIF> >0x0D TIF> >0x21 TIF> >0x0D TIF> >0x28 TIF> >0x0D TIF> >0x21 TIF> >0x0D TIF> >0x21 TIF> >0x0D TIF> >0x28 TIF> >0x0D TIF> >0x28 TIF> >0x0D TIF> >0x28 TIF> >0x0D TIF> >0x21 TIF> >0x0D TIF> >0x21 TIF> >0x0D TIF> >0x28 TIF> >0x0D TIF> >0x28 TIF> >0x0D TIF> >0x28 TIF> >0x0D TIF>
 >0x21 TIF> >0x0D TIF> >0x21 TIF> >0x108 TIF>Found SWD-DP with ID 0x2BA01477 >0x0D TIF> >0x21 TIF> >0x0D TIF> >0x28 TIF> >0x0D TIF> >0x28 TIF> >0x0D TIF> >0x21 TIF> >0x0D TIF> >0x28 TIF> >0x0D TIF> >0x21 TIF> >0x0D TIF> >0x21 TIF> >0x0D TIF> >0x21 TIF> >0x0D TIF> >0x21 TIF> >0x0D TIF> >0x28 TIF> >0x0D TIF> >0x28 TIF> >0x0D TIF> >0x21 TIF> >0x0D TIF> >0x28 TIF> >0x0D TIF> >0x28 TIF> >0x0D TIF> >0x28 TIF> >0x0D TIF> >0x21 TIF> >0x0D TIF> >0x21 TIF> >0x0D TIF> >0x28 TIF> >0x0D TIF> >0x21 TIF> >0x0D TIF>
 >0x21 TIF>Found Cortex-M4 r0p1, Little endian. -- CPU_ReadMem(4 bytes @ 0xE000EDF0) -- CPU_WriteMem(4 bytes @ 0xE000EDF0) -- CPU_ReadMem(4 bytes @ 0xE0002000)FPUnit: 6 code (BP) slots and 2 literal slots -- CPU_ReadMem(4 bytes @ 0xE000EDFC) -- CPU_WriteMem(4 bytes @ 0xE000EDFC) -- CPU_ReadMem(4 bytes @ 0xE0001000) -- CPU_WriteMem(4 bytes @ 0xE0001000) -- CPU_ReadMem(4 bytes @ 0xE000ED88) -- CPU_WriteMem(4 bytes @ 0xE000ED88) -- CPU_ReadMem(4 bytes @ 0xE000ED88) -- CPU_WriteMem(4 bytes @ 0xE000ED88)
CoreSight components:ROMTbl 0 @ E00FF000 -- CPU_ReadMem(16 bytes @ 0xE00FF000) -- CPU_ReadMem(16 bytes @ 0xE000EFF0) -- CPU_ReadMem(16 bytes @ 0xE000EFE0)ROMTbl 0 [0]: FFF0F000, CID: B105E00D, PID: 000BB00C SCS -- CPU_ReadMem(16 bytes @ 0xE0001FF0) -- CPU_ReadMem(16 bytes @ 0xE0001FE0)ROMTbl 0 [1]: FFF02000, CID: B105E00D, PID: 003BB002 DWT -- CPU_ReadMem(16 bytes @ 0xE0002FF0) -- CPU_ReadMem(16 bytes @ 0xE0002FE0)ROMTbl 0 [2]: FFF03000, CID: B105E00D, PID: 002BB003 FPB
 -- CPU_ReadMem(16 bytes @ 0xE0000FF0) -- CPU_ReadMem(16 bytes @ 0xE0000FE0)ROMTbl 0 [3]: FFF01000, CID: B105E00D, PID: 003BB001 ITM -- CPU_ReadMem(16 bytes @ 0xE00FF010) -- CPU_ReadMem(16 bytes @ 0xE0040FF0) -- CPU_ReadMem(16 bytes @ 0xE0040FE0)ROMTbl 0 [4]: FFF41000, CID: B105900D, PID: 000BB9A1 TPIU -- CPU_ReadMem(16 bytes @ 0xE0041FF0) -- CPU_ReadMem(16 bytes @ 0xE0041FE0)ROMTbl 0 [5]: FFF42000, CID: B105900D, PID: 000BB925 ETM >0x0D TIF> >0x21 TIF>  returns 0x2BA01477 (0085ms, 0746ms total)
T1C04 001:419 JLINK_GetDeviceFamily()  returns 14 (0000ms, 0746ms total)
T1C04 001:421 JLINK_ReadMem (0xE00FFFF0, 0x0010 Bytes, ...) -- CPU is running -- CPU_ReadMem(16 bytes @ 0xE00FFFF0) - Data: 0D 00 00 00 10 00 00 00 05 00 00 00 B1 00 00 00  returns 0x00 (0001ms, 0747ms total)
T1C04 001:422 JLINK_ReadMem (0xE00FFFD0, 0x0020 Bytes, ...) -- CPU is running -- CPU_ReadMem(32 bytes @ 0xE00FFFD0) - Data: 00 00 00 00 00 00 00 00 00 00 00 00 00 00 00 00 ...  returns 0x00 (0001ms, 0748ms total)
T1C04 001:423 JLINK_ReadMem (0xE00FF000, 0x0018 Bytes, ...) -- CPU is running -- CPU_ReadMem(24 bytes @ 0xE00FF000) - Data: 03 F0 F0 FF 03 20 F0 FF 03 30 F0 FF 03 10 F0 FF ...  returns 0x00 (0001ms, 0749ms total)
T1C04 001:424 JLINK_ReadMemU32(0xE000ED00, 0x0001 Items, ...) -- CPU is running -- CPU_ReadMem(4 bytes @ 0xE000ED00) - Data: 41 C2 0F 41  returns 0x01 (0001ms, 0750ms total)
T1C04 001:425 JLINK_ReadMemU32(0xE000EF40, 0x0001 Items, ...) -- CPU is running -- CPU_ReadMem(4 bytes @ 0xE000EF40) - Data: 21 00 11 10  returns 0x01 (0000ms, 0750ms total)
T1C04 001:425 JLINK_ReadMemU32(0xE000EF44, 0x0001 Items, ...) -- CPU is running -- CPU_ReadMem(4 bytes @ 0xE000EF44) - Data: 11 00 00 11  returns 0x01 (0001ms, 0751ms total)
T1C04 001:426 JLINK_SetResetType(JLINKARM_RESET_TYPE_NORMAL)  returns JLINKARM_RESET_TYPE_NORMAL (0000ms, 0751ms total)
T1C04 001:426 JLINK_Reset() -- CPU is running -- CPU_WriteMem(4 bytes @ 0xE000EDF0) -- CPU is running -- CPU_WriteMem(4 bytes @ 0xE000EDFC) >0x35 TIF> -- CPU is running -- CPU_WriteMem(4 bytes @ 0xE000ED0C) -- CPU is running -- CPU_ReadMem(4 bytes @ 0xE000EDF0) -- CPU is running -- CPU_ReadMem(4 bytes @ 0xE000EDF0) -- CPU is running -- CPU_WriteMem(4 bytes @ 0xE000EDF0) -- CPU is running -- CPU_WriteMem(4 bytes @ 0xE000EDFC) -- CPU is running -- CPU_ReadMem(4 bytes @ 0xE000EDF0)
 -- CPU_WriteMem(4 bytes @ 0xE0002000) -- CPU_ReadMem(4 bytes @ 0xE000EDFC) -- CPU_ReadMem(4 bytes @ 0xE0001000) (0020ms, 0771ms total)
T1C04 001:446 JLINK_Halt()  returns 0x00 (0000ms, 0771ms total)
T1C04 001:446 JLINK_IsHalted()  returns TRUE (0000ms, 0771ms total)
T1C04 001:446 JLINK_ReadMemU32(0xE000EDF0, 0x0001 Items, ...) -- CPU_ReadMem(4 bytes @ 0xE000EDF0) - Data: 03 00 03 00  returns 0x01 (0001ms, 0772ms total)
T1C04 001:447 JLINK_WriteU32(0xE000EDF0, 0xA05F0003) -- CPU_WriteMem(4 bytes @ 0xE000EDF0)  returns 0x00 (0001ms, 0773ms total)
T1C04 001:448 JLINK_WriteU32(0xE000EDFC, 0x01000000) -- CPU_WriteMem(4 bytes @ 0xE000EDFC)  returns 0x00 (0001ms, 0774ms total)
T1C04 001:454 JLINK_GetHWStatus(...)  returns 0x00 (0000ms, 0774ms total)
T1C04 001:458 JLINK_GetNumBPUnits(Type = 0xFFFFFF00)  returns 0x06 (0000ms, 0774ms total)
T1C04 001:458 JLINK_GetNumBPUnits(Type = 0xF0)  returns 0x2000 (0000ms, 0774ms total)
T1C04 001:458 JLINK_GetNumWPUnits()  returns 0x04 (0000ms, 0774ms total)
T1C04 001:462 JLINK_GetSpeed()  returns 0xFA0 (0000ms, 0774ms total)
T1C04 001:465 JLINK_ReadMemU32(0xE000E004, 0x0001 Items, ...) -- CPU_ReadMem(4 bytes @ 0xE000E004) - Data: 02 00 00 00  returns 0x01 (0001ms, 0775ms total)
T1C04 001:466 JLINK_ReadMemU32(0xE000E004, 0x0001 Items, ...) -- CPU_ReadMem(4 bytes @ 0xE000E004) - Data: 02 00 00 00  returns 0x01 (0000ms, 0775ms total)
T1C04 001:466 JLINK_WriteMem(0xE0001000, 0x001C Bytes, ...) - Data: 01 00 00 00 00 00 00 00 00 00 00 00 00 00 00 00 ... -- CPU_WriteMem(28 bytes @ 0xE0001000)  returns 0x1C (0002ms, 0777ms total)
T1C04 001:468 JLINK_ReadMem (0xE0001000, 0x001C Bytes, ...) -- CPU_ReadMem(28 bytes @ 0xE0001000) - Data: 01 00 00 40 00 00 00 00 00 00 00 00 00 00 00 00 ...  returns 0x00 (0001ms, 0778ms total)
T1C04 001:469 JLINK_Halt()  returns 0x00 (0000ms, 0778ms total)
T1C04 001:469 JLINK_IsHalted()  returns TRUE (0000ms, 0778ms total)
T1C04 001:471 JLINK_WriteMem(0x20000000, 0x0180 Bytes, ...) - Data: 00 BE 0A E0 0D 78 2D 06 68 40 08 24 40 00 00 D3 ... -- CPU_WriteMem(384 bytes @ 0x20000000)  returns 0x180 (0006ms, 0784ms total)
T1C04 001:477 JLINK_WriteReg(R0, 0x08000000)  returns 0x00 (0000ms, 0784ms total)
T1C04 001:477 JLINK_WriteReg(R1, 0x007A1200)  returns 0x00 (0000ms, 0784ms total)
T1C04 001:477 JLINK_WriteReg(R2, 0x00000001)  returns 0x00 (0000ms, 0784ms total)
T1C04 001:477 JLINK_WriteReg(R3, 0x00000000)  returns 0x00 (0000ms, 0784ms total)
T1C04 001:477 JLINK_WriteReg(R4, 0x00000000)  returns 0x00 (0000ms, 0784ms total)
T1C04 001:477 JLINK_WriteReg(R5, 0x00000000)  returns 0x00 (0000ms, 0784ms total)
T1C04 001:477 JLINK_WriteReg(R6, 0x00000000)  returns 0x00 (0000ms, 0784ms total)
T1C04 001:477 JLINK_WriteReg(R7, 0x00000000)  returns 0x00 (0000ms, 0784ms total)
T1C04 001:477 JLINK_WriteReg(R8, 0x00000000)  returns 0x00 (0000ms, 0784ms total)
T1C04 001:477 JLINK_WriteReg(R9, 0x2000017C)  returns 0x00 (0000ms, 0784ms total)
T1C04 001:477 JLINK_WriteReg(R10, 0x00000000)  returns 0x00 (0001ms, 0785ms total)
T1C04 001:478 JLINK_WriteReg(R11, 0x00000000)  returns 0x00 (0000ms, 0785ms total)
T1C04 001:478 JLINK_WriteReg(R12, 0x00000000)  returns 0x00 (0000ms, 0785ms total)
T1C04 001:478 JLINK_WriteReg(R13 (SP), 0x20000800)  returns 0x00 (0000ms, 0785ms total)
T1C04 001:478 JLINK_WriteReg(R14, 0x20000001)  returns 0x00 (0000ms, 0785ms total)
T1C04 001:478 JLINK_WriteReg(R15 (PC), 0x20000054)  returns 0x00 (0000ms, 0785ms total)
T1C04 001:478 JLINK_WriteReg(XPSR, 0x01000000)  returns 0x00 (0000ms, 0785ms total)
T1C04 001:478 JLINK_WriteReg(MSP, 0x20000800)  returns 0x00 (0000ms, 0785ms total)
T1C04 001:478 JLINK_WriteReg(PSP, 0x20000800)  returns 0x00 (0000ms, 0785ms total)
T1C04 001:478 JLINK_WriteReg(CFBP, 0x00000000)  returns 0x00 (0000ms, 0785ms total)
T1C04 001:478 JLINK_SetBPEx(Addr = 0x20000000, Type = 0xFFFFFFF2) -- CPU_ReadMem(2 bytes @ 0x20000000)  returns 0x00000001 (0001ms, 0786ms total)
T1C04 001:479 JLINK_Go() -- CPU_WriteMem(2 bytes @ 0x20000000) -- CPU_ReadMem(4 bytes @ 0xE0001000) -- CPU_WriteMem(4 bytes @ 0xE0002008) -- CPU_WriteMem(4 bytes @ 0xE000200C) -- CPU_WriteMem(4 bytes @ 0xE0002010) -- CPU_WriteMem(4 bytes @ 0xE0002014) -- CPU_WriteMem(4 bytes @ 0xE0002018) -- CPU_WriteMem(4 bytes @ 0xE000201C) -- CPU_WriteMem(4 bytes @ 0xE0001004) (0007ms, 0793ms total)
T1C04 001:486 JLINK_IsHalted() -- CPU_ReadMem(2 bytes @ 0x20000000)  returns TRUE (0004ms, 0797ms total)
T1C04 001:490 JLINK_ReadReg(R15 (PC))  returns 0x20000000 (0000ms, 0793ms total)
T1C04 001:490 JLINK_ClrBPEx(BPHandle = 0x00000001)  returns 0x00 (0000ms, 0793ms total)
T1C04 001:490 JLINK_ReadReg(R0)  returns 0x00000000 (0000ms, 0793ms total)
T1C04 001:491 JLINK_WriteReg(R0, 0x08000000)  returns 0x00 (0000ms, 0793ms total)
T1C04 001:491 JLINK_WriteReg(R1, 0x00004000)  returns 0x00 (0000ms, 0793ms total)
T1C04 001:491 JLINK_WriteReg(R2, 0x000000FF)  returns 0x00 (0000ms, 0793ms total)
T1C04 001:491 JLINK_WriteReg(R3, 0x00000000)  returns 0x00 (0000ms, 0793ms total)
T1C04 001:491 JLINK_WriteReg(R4, 0x00000000)  returns 0x00 (0000ms, 0793ms total)
T1C04 001:491 JLINK_WriteReg(R5, 0x00000000)  returns 0x00 (0000ms, 0793ms total)
T1C04 001:491 JLINK_WriteReg(R6, 0x00000000)  returns 0x00 (0000ms, 0793ms total)
T1C04 001:491 JLINK_WriteReg(R7, 0x00000000)  returns 0x00 (0000ms, 0793ms total)
T1C04 001:491 JLINK_WriteReg(R8, 0x00000000)  returns 0x00 (0000ms, 0793ms total)
T1C04 001:491 JLINK_WriteReg(R9, 0x2000017C)  returns 0x00 (0000ms, 0793ms total)
T1C04 001:491 JLINK_WriteReg(R10, 0x00000000)  returns 0x00 (0000ms, 0793ms total)
T1C04 001:491 JLINK_WriteReg(R11, 0x00000000)  returns 0x00 (0000ms, 0793ms total)
T1C04 001:491 JLINK_WriteReg(R12, 0x00000000)  returns 0x00 (0000ms, 0793ms total)
T1C04 001:491 JLINK_WriteReg(R13 (SP), 0x20000800)  returns 0x00 (0000ms, 0793ms total)
T1C04 001:491 JLINK_WriteReg(R14, 0x20000001)  returns 0x00 (0000ms, 0793ms total)
T1C04 001:491 JLINK_WriteReg(R15 (PC), 0x20000020)  returns 0x00 (0000ms, 0793ms total)
T1C04 001:491 JLINK_WriteReg(XPSR, 0x01000000)  returns 0x00 (0000ms, 0793ms total)
T1C04 001:491 JLINK_WriteReg(MSP, 0x20000800)  returns 0x00 (0000ms, 0793ms total)
T1C04 001:491 JLINK_WriteReg(PSP, 0x20000800)  returns 0x00 (0000ms, 0793ms total)
T1C04 001:491 JLINK_WriteReg(CFBP, 0x00000000)  returns 0x00 (0000ms, 0793ms total)
T1C04 001:491 JLINK_SetBPEx(Addr = 0x20000000, Type = 0xFFFFFFF2)  returns 0x00000002 (0000ms, 0793ms total)
T1C04 001:491 JLINK_Go() -- CPU_ReadMem(4 bytes @ 0xE0001000) (0003ms, 0796ms total)
T1C04 001:494 JLINK_IsHalted() -- CPU_ReadMem(2 bytes @ 0x20000000)  returns TRUE (0004ms, 0800ms total)
T1C04 001:498 JLINK_ReadReg(R15 (PC))  returns 0x20000000 (0000ms, 0796ms total)
T1C04 001:498 JLINK_ClrBPEx(BPHandle = 0x00000002)  returns 0x00 (0000ms, 0796ms total)
T1C04 001:498 JLINK_ReadReg(R0)  returns 0x00000001 (0000ms, 0796ms total)
T1C04 001:498 JLINK_WriteReg(R0, 0x08000000)  returns 0x00 (0000ms, 0796ms total)
T1C04 001:498 JLINK_WriteReg(R1, 0x00004000)  returns 0x00 (0000ms, 0796ms total)
T1C04 001:498 JLINK_WriteReg(R2, 0x000000FF)  returns 0x00 (0000ms, 0796ms total)
T1C04 001:498 JLINK_WriteReg(R3, 0x00000000)  returns 0x00 (0001ms, 0797ms total)
T1C04 001:499 JLINK_WriteReg(R4, 0x00000000)  returns 0x00 (0000ms, 0797ms total)
T1C04 001:499 JLINK_WriteReg(R5, 0x00000000)  returns 0x00 (0000ms, 0797ms total)
T1C04 001:499 JLINK_WriteReg(R6, 0x00000000)  returns 0x00 (0000ms, 0797ms total)
T1C04 001:499 JLINK_WriteReg(R7, 0x00000000)  returns 0x00 (0000ms, 0797ms total)
T1C04 001:499 JLINK_WriteReg(R8, 0x00000000)  returns 0x00 (0000ms, 0797ms total)
T1C04 001:499 JLINK_WriteReg(R9, 0x2000017C)  returns 0x00 (0000ms, 0797ms total)
T1C04 001:499 JLINK_WriteReg(R10, 0x00000000)  returns 0x00 (0000ms, 0797ms total)
T1C04 001:499 JLINK_WriteReg(R11, 0x00000000)  returns 0x00 (0000ms, 0797ms total)
T1C04 001:499 JLINK_WriteReg(R12, 0x00000000)  returns 0x00 (0000ms, 0797ms total)
T1C04 001:499 JLINK_WriteReg(R13 (SP), 0x20000800)  returns 0x00 (0000ms, 0797ms total)
T1C04 001:499 JLINK_WriteReg(R14, 0x20000001)  returns 0x00 (0000ms, 0797ms total)
T1C04 001:499 JLINK_WriteReg(R15 (PC), 0x200000BC)  returns 0x00 (0000ms, 0797ms total)
T1C04 001:499 JLINK_WriteReg(XPSR, 0x01000000)  returns 0x00 (0000ms, 0797ms total)
T1C04 001:499 JLINK_WriteReg(MSP, 0x20000800)  returns 0x00 (0000ms, 0797ms total)
T1C04 001:499 JLINK_WriteReg(PSP, 0x20000800)  returns 0x00 (0000ms, 0797ms total)
T1C04 001:499 JLINK_WriteReg(CFBP, 0x00000000)  returns 0x00 (0000ms, 0797ms total)
T1C04 001:499 JLINK_SetBPEx(Addr = 0x20000000, Type = 0xFFFFFFF2)  returns 0x00000003 (0000ms, 0797ms total)
T1C04 001:499 JLINK_Go() -- CPU_ReadMem(4 bytes @ 0xE0001000) (0003ms, 0800ms total)
T1C04 001:502 JLINK_IsHalted()  returns FALSE (0000ms, 0800ms total)
T1C04 001:552 JLINK_IsHalted()  returns FALSE (0001ms, 0801ms total)
T1C04 001:603 JLINK_IsHalted()  returns FALSE (0001ms, 0801ms total)
T1C04 001:654 JLINK_IsHalted()  returns FALSE (0000ms, 0800ms total)
T1C04 001:704 JLINK_IsHalted()  returns FALSE (0000ms, 0800ms total)
T1C04 001:754 JLINK_IsHalted()  returns FALSE (0000ms, 0800ms total)
T1C04 001:804 JLINK_IsHalted()  returns FALSE (0001ms, 0801ms total)
T1C04 001:855 JLINK_IsHalted() -- CPU_ReadMem(2 bytes @ 0x20000000)  returns TRUE (0005ms, 0805ms total)
T1C04 001:861 JLINK_ReadReg(R15 (PC))  returns 0x20000000 (0000ms, 0800ms total)
T1C04 001:861 JLINK_ClrBPEx(BPHandle = 0x00000003)  returns 0x00 (0000ms, 0800ms total)
T1C04 001:861 JLINK_ReadReg(R0)  returns 0x00000000 (0000ms, 0800ms total)
T1C04 001:861 JLINK_WriteReg(R0, 0x08004000)  returns 0x00 (0000ms, 0800ms total)
T1C04 001:861 JLINK_WriteReg(R1, 0x00004000)  returns 0x00 (0000ms, 0800ms total)
T1C04 001:861 JLINK_WriteReg(R2, 0x000000FF)  returns 0x00 (0000ms, 0800ms total)
T1C04 001:861 JLINK_WriteReg(R3, 0x00000000)  returns 0x00 (0000ms, 0800ms total)
T1C04 001:861 JLINK_WriteReg(R4, 0x00000000)  returns 0x00 (0000ms, 0800ms total)
T1C04 001:861 JLINK_WriteReg(R5, 0x00000000)  returns 0x00 (0000ms, 0800ms total)
T1C04 001:861 JLINK_WriteReg(R6, 0x00000000)  returns 0x00 (0000ms, 0800ms total)
T1C04 001:861 JLINK_WriteReg(R7, 0x00000000)  returns 0x00 (0000ms, 0800ms total)
T1C04 001:861 JLINK_WriteReg(R8, 0x00000000)  returns 0x00 (0000ms, 0800ms total)
T1C04 001:861 JLINK_WriteReg(R9, 0x2000017C)  returns 0x00 (0000ms, 0800ms total)
T1C04 001:861 JLINK_WriteReg(R10, 0x00000000)  returns 0x00 (0000ms, 0800ms total)
T1C04 001:861 JLINK_WriteReg(R11, 0x00000000)  returns 0x00 (0000ms, 0800ms total)
T1C04 001:861 JLINK_WriteReg(R12, 0x00000000)  returns 0x00 (0000ms, 0800ms total)
T1C04 001:861 JLINK_WriteReg(R13 (SP), 0x20000800)  returns 0x00 (0000ms, 0800ms total)
T1C04 001:861 JLINK_WriteReg(R14, 0x20000001)  returns 0x00 (0000ms, 0800ms total)
T1C04 001:861 JLINK_WriteReg(R15 (PC), 0x20000020)  returns 0x00 (0000ms, 0800ms total)
T1C04 001:861 JLINK_WriteReg(XPSR, 0x01000000)  returns 0x00 (0001ms, 0801ms total)
T1C04 001:862 JLINK_WriteReg(MSP, 0x20000800)  returns 0x00 (0000ms, 0801ms total)
T1C04 001:862 JLINK_WriteReg(PSP, 0x20000800)  returns 0x00 (0000ms, 0801ms total)
T1C04 001:862 JLINK_WriteReg(CFBP, 0x00000000)  returns 0x00 (0000ms, 0801ms total)
T1C04 001:862 JLINK_SetBPEx(Addr = 0x20000000, Type = 0xFFFFFFF2)  returns 0x00000004 (0000ms, 0801ms total)
T1C04 001:862 JLINK_Go() -- CPU_ReadMem(4 bytes @ 0xE0001000) (0003ms, 0804ms total)
T1C04 001:865 JLINK_IsHalted() -- CPU_ReadMem(2 bytes @ 0x20000000)  returns TRUE (0004ms, 0808ms total)
T1C04 001:869 JLINK_ReadReg(R15 (PC))  returns 0x20000000 (0000ms, 0804ms total)
T1C04 001:869 JLINK_ClrBPEx(BPHandle = 0x00000004)  returns 0x00 (0000ms, 0804ms total)
T1C04 001:869 JLINK_ReadReg(R0)  returns 0x00000001 (0000ms, 0804ms total)
T1C04 001:869 JLINK_WriteReg(R0, 0x08004000)  returns 0x00 (0000ms, 0804ms total)
T1C04 001:869 JLINK_WriteReg(R1, 0x00004000)  returns 0x00 (0000ms, 0804ms total)
T1C04 001:869 JLINK_WriteReg(R2, 0x000000FF)  returns 0x00 (0000ms, 0804ms total)
T1C04 001:869 JLINK_WriteReg(R3, 0x00000000)  returns 0x00 (0000ms, 0804ms total)
T1C04 001:869 JLINK_WriteReg(R4, 0x00000000)  returns 0x00 (0000ms, 0804ms total)
T1C04 001:869 JLINK_WriteReg(R5, 0x00000000)  returns 0x00 (0000ms, 0804ms total)
T1C04 001:869 JLINK_WriteReg(R6, 0x00000000)  returns 0x00 (0000ms, 0804ms total)
T1C04 001:869 JLINK_WriteReg(R7, 0x00000000)  returns 0x00 (0000ms, 0804ms total)
T1C04 001:869 JLINK_WriteReg(R8, 0x00000000)  returns 0x00 (0000ms, 0804ms total)
T1C04 001:869 JLINK_WriteReg(R9, 0x2000017C)  returns 0x00 (0000ms, 0804ms total)
T1C04 001:869 JLINK_WriteReg(R10, 0x00000000)  returns 0x00 (0000ms, 0804ms total)
T1C04 001:869 JLINK_WriteReg(R11, 0x00000000)  returns 0x00 (0000ms, 0804ms total)
T1C04 001:869 JLINK_WriteReg(R12, 0x00000000)  returns 0x00 (0000ms, 0804ms total)
T1C04 001:869 JLINK_WriteReg(R13 (SP), 0x20000800)  returns 0x00 (0000ms, 0804ms total)
T1C04 001:869 JLINK_WriteReg(R14, 0x20000001)  returns 0x00 (0000ms, 0804ms total)
T1C04 001:869 JLINK_WriteReg(R15 (PC), 0x200000BC)  returns 0x00 (0000ms, 0804ms total)
T1C04 001:869 JLINK_WriteReg(XPSR, 0x01000000)  returns 0x00 (0000ms, 0804ms total)
T1C04 001:869 JLINK_WriteReg(MSP, 0x20000800)  returns 0x00 (0000ms, 0804ms total)
T1C04 001:869 JLINK_WriteReg(PSP, 0x20000800)  returns 0x00 (0000ms, 0804ms total)
T1C04 001:869 JLINK_WriteReg(CFBP, 0x00000000)  returns 0x00 (0000ms, 0804ms total)
T1C04 001:869 JLINK_SetBPEx(Addr = 0x20000000, Type = 0xFFFFFFF2)  returns 0x00000005 (0000ms, 0804ms total)
T1C04 001:869 JLINK_Go() -- CPU_ReadMem(4 bytes @ 0xE0001000) (0003ms, 0807ms total)
T1C04 001:872 JLINK_IsHalted()  returns FALSE (0001ms, 0808ms total)
T1C04 001:923 JLINK_IsHalted()  returns FALSE (0001ms, 0808ms total)
T1C04 001:974 JLINK_IsHalted()  returns FALSE (0000ms, 0807ms total)
T1C04 002:024 JLINK_IsHalted()  returns FALSE (0000ms, 0807ms total)
T1C04 002:074 JLINK_IsHalted()  returns FALSE (0000ms, 0807ms total)
T1C04 002:124 JLINK_IsHalted()  returns FALSE (0000ms, 0807ms total)
T1C04 002:174 JLINK_IsHalted()  returns FALSE (0000ms, 0807ms total)
T1C04 002:224 JLINK_IsHalted()  returns FALSE (0000ms, 0807ms total)
T1C04 002:274 JLINK_IsHalted() -- CPU_ReadMem(2 bytes @ 0x20000000)  returns TRUE (0004ms, 0811ms total)
T1C04 002:278 JLINK_ReadReg(R15 (PC))  returns 0x20000000 (0000ms, 0807ms total)
T1C04 002:278 JLINK_ClrBPEx(BPHandle = 0x00000005)  returns 0x00 (0000ms, 0807ms total)
T1C04 002:278 JLINK_ReadReg(R0)  returns 0x00000000 (0000ms, 0807ms total)
T1C04 002:278 JLINK_WriteReg(R0, 0x08008000)  returns 0x00 (0000ms, 0807ms total)
T1C04 002:278 JLINK_WriteReg(R1, 0x00004000)  returns 0x00 (0000ms, 0807ms total)
T1C04 002:278 JLINK_WriteReg(R2, 0x000000FF)  returns 0x00 (0000ms, 0807ms total)
T1C04 002:278 JLINK_WriteReg(R3, 0x00000000)  returns 0x00 (0000ms, 0807ms total)
T1C04 002:278 JLINK_WriteReg(R4, 0x00000000)  returns 0x00 (0000ms, 0807ms total)
T1C04 002:278 JLINK_WriteReg(R5, 0x00000000)  returns 0x00 (0001ms, 0808ms total)
T1C04 002:279 JLINK_WriteReg(R6, 0x00000000)  returns 0x00 (0000ms, 0808ms total)
T1C04 002:279 JLINK_WriteReg(R7, 0x00000000)  returns 0x00 (0000ms, 0808ms total)
T1C04 002:279 JLINK_WriteReg(R8, 0x00000000)  returns 0x00 (0000ms, 0808ms total)
T1C04 002:279 JLINK_WriteReg(R9, 0x2000017C)  returns 0x00 (0000ms, 0808ms total)
T1C04 002:279 JLINK_WriteReg(R10, 0x00000000)  returns 0x00 (0000ms, 0808ms total)
T1C04 002:279 JLINK_WriteReg(R11, 0x00000000)  returns 0x00 (0000ms, 0808ms total)
T1C04 002:279 JLINK_WriteReg(R12, 0x00000000)  returns 0x00 (0000ms, 0808ms total)
T1C04 002:279 JLINK_WriteReg(R13 (SP), 0x20000800)  returns 0x00 (0000ms, 0808ms total)
T1C04 002:279 JLINK_WriteReg(R14, 0x20000001)  returns 0x00 (0000ms, 0808ms total)
T1C04 002:279 JLINK_WriteReg(R15 (PC), 0x20000020)  returns 0x00 (0000ms, 0808ms total)
T1C04 002:279 JLINK_WriteReg(XPSR, 0x01000000)  returns 0x00 (0000ms, 0808ms total)
T1C04 002:279 JLINK_WriteReg(MSP, 0x20000800)  returns 0x00 (0000ms, 0808ms total)
T1C04 002:279 JLINK_WriteReg(PSP, 0x20000800)  returns 0x00 (0000ms, 0808ms total)
T1C04 002:279 JLINK_WriteReg(CFBP, 0x00000000)  returns 0x00 (0000ms, 0808ms total)
T1C04 002:279 JLINK_SetBPEx(Addr = 0x20000000, Type = 0xFFFFFFF2)  returns 0x00000006 (0000ms, 0808ms total)
T1C04 002:279 JLINK_Go() -- CPU_ReadMem(4 bytes @ 0xE0001000) (0003ms, 0811ms total)
T1C04 002:282 JLINK_IsHalted() -- CPU_ReadMem(2 bytes @ 0x20000000)  returns TRUE (0006ms, 0817ms total)
T1C04 002:288 JLINK_ReadReg(R15 (PC))  returns 0x20000000 (0000ms, 0811ms total)
T1C04 002:288 JLINK_ClrBPEx(BPHandle = 0x00000006)  returns 0x00 (0000ms, 0811ms total)
T1C04 002:288 JLINK_ReadReg(R0)  returns 0x00000001 (0000ms, 0811ms total)
T1C04 002:288 JLINK_WriteReg(R0, 0x08008000)  returns 0x00 (0000ms, 0811ms total)
T1C04 002:288 JLINK_WriteReg(R1, 0x00004000)  returns 0x00 (0000ms, 0811ms total)
T1C04 002:288 JLINK_WriteReg(R2, 0x000000FF)  returns 0x00 (0000ms, 0811ms total)
T1C04 002:288 JLINK_WriteReg(R3, 0x00000000)  returns 0x00 (0000ms, 0811ms total)
T1C04 002:288 JLINK_WriteReg(R4, 0x00000000)  returns 0x00 (0000ms, 0811ms total)
T1C04 002:288 JLINK_WriteReg(R5, 0x00000000)  returns 0x00 (0000ms, 0811ms total)
T1C04 002:288 JLINK_WriteReg(R6, 0x00000000)  returns 0x00 (0000ms, 0811ms total)
T1C04 002:288 JLINK_WriteReg(R7, 0x00000000)  returns 0x00 (0000ms, 0811ms total)
T1C04 002:288 JLINK_WriteReg(R8, 0x00000000)  returns 0x00 (0000ms, 0811ms total)
T1C04 002:288 JLINK_WriteReg(R9, 0x2000017C)  returns 0x00 (0000ms, 0811ms total)
T1C04 002:288 JLINK_WriteReg(R10, 0x00000000)  returns 0x00 (0000ms, 0811ms total)
T1C04 002:288 JLINK_WriteReg(R11, 0x00000000)  returns 0x00 (0000ms, 0811ms total)
T1C04 002:288 JLINK_WriteReg(R12, 0x00000000)  returns 0x00 (0000ms, 0811ms total)
T1C04 002:288 JLINK_WriteReg(R13 (SP), 0x20000800)  returns 0x00 (0000ms, 0811ms total)
T1C04 002:288 JLINK_WriteReg(R14, 0x20000001)  returns 0x00 (0000ms, 0811ms total)
T1C04 002:288 JLINK_WriteReg(R15 (PC), 0x200000BC)  returns 0x00 (0000ms, 0811ms total)
T1C04 002:288 JLINK_WriteReg(XPSR, 0x01000000)  returns 0x00 (0000ms, 0811ms total)
T1C04 002:288 JLINK_WriteReg(MSP, 0x20000800)  returns 0x00 (0000ms, 0811ms total)
T1C04 002:288 JLINK_WriteReg(PSP, 0x20000800)  returns 0x00 (0000ms, 0811ms total)
T1C04 002:288 JLINK_WriteReg(CFBP, 0x00000000)  returns 0x00 (0000ms, 0811ms total)
T1C04 002:288 JLINK_SetBPEx(Addr = 0x20000000, Type = 0xFFFFFFF2)  returns 0x00000007 (0000ms, 0811ms total)
T1C04 002:288 JLINK_Go() -- CPU_ReadMem(4 bytes @ 0xE0001000) (0004ms, 0815ms total)
T1C04 002:292 JLINK_IsHalted()  returns FALSE (0001ms, 0816ms total)
T1C04 002:343 JLINK_IsHalted()  returns FALSE (0000ms, 0815ms total)
T1C04 002:393 JLINK_IsHalted()  returns FALSE (0001ms, 0816ms total)
T1C04 002:444 JLINK_IsHalted()  returns FALSE (0001ms, 0816ms total)
T1C04 002:495 JLINK_IsHalted()  returns FALSE (0000ms, 0815ms total)
T1C04 002:546 JLINK_IsHalted()  returns FALSE (0003ms, 0818ms total)
T1C04 002:599 JLINK_IsHalted()  returns FALSE (0001ms, 0816ms total)
T1C04 002:650 JLINK_IsHalted()  returns FALSE (0001ms, 0816ms total)
T1C04 002:701 JLINK_IsHalted() -- CPU_ReadMem(2 bytes @ 0x20000000)  returns TRUE (0005ms, 0820ms total)
T1C04 002:706 JLINK_ReadReg(R15 (PC))  returns 0x20000000 (0000ms, 0815ms total)
T1C04 002:706 JLINK_ClrBPEx(BPHandle = 0x00000007)  returns 0x00 (0000ms, 0815ms total)
T1C04 002:706 JLINK_ReadReg(R0)  returns 0x00000000 (0000ms, 0815ms total)
T1C04 002:707 JLINK_WriteReg(R0, 0x0800C000)  returns 0x00 (0000ms, 0815ms total)
T1C04 002:707 JLINK_WriteReg(R1, 0x00004000)  returns 0x00 (0000ms, 0815ms total)
T1C04 002:707 JLINK_WriteReg(R2, 0x000000FF)  returns 0x00 (0000ms, 0815ms total)
T1C04 002:707 JLINK_WriteReg(R3, 0x00000000)  returns 0x00 (0000ms, 0815ms total)
T1C04 002:707 JLINK_WriteReg(R4, 0x00000000)  returns 0x00 (0000ms, 0815ms total)
T1C04 002:707 JLINK_WriteReg(R5, 0x00000000)  returns 0x00 (0000ms, 0815ms total)
T1C04 002:707 JLINK_WriteReg(R6, 0x00000000)  returns 0x00 (0000ms, 0815ms total)
T1C04 002:707 JLINK_WriteReg(R7, 0x00000000)  returns 0x00 (0000ms, 0815ms total)
T1C04 002:707 JLINK_WriteReg(R8, 0x00000000)  returns 0x00 (0000ms, 0815ms total)
T1C04 002:707 JLINK_WriteReg(R9, 0x2000017C)  returns 0x00 (0000ms, 0815ms total)
T1C04 002:707 JLINK_WriteReg(R10, 0x00000000)  returns 0x00 (0000ms, 0815ms total)
T1C04 002:707 JLINK_WriteReg(R11, 0x00000000)  returns 0x00 (0000ms, 0815ms total)
T1C04 002:707 JLINK_WriteReg(R12, 0x00000000)  returns 0x00 (0000ms, 0815ms total)
T1C04 002:707 JLINK_WriteReg(R13 (SP), 0x20000800)  returns 0x00 (0000ms, 0815ms total)
T1C04 002:707 JLINK_WriteReg(R14, 0x20000001)  returns 0x00 (0000ms, 0815ms total)
T1C04 002:707 JLINK_WriteReg(R15 (PC), 0x20000020)  returns 0x00 (0000ms, 0815ms total)
T1C04 002:707 JLINK_WriteReg(XPSR, 0x01000000)  returns 0x00 (0000ms, 0815ms total)
T1C04 002:707 JLINK_WriteReg(MSP, 0x20000800)  returns 0x00 (0000ms, 0815ms total)
T1C04 002:707 JLINK_WriteReg(PSP, 0x20000800)  returns 0x00 (0000ms, 0815ms total)
T1C04 002:707 JLINK_WriteReg(CFBP, 0x00000000)  returns 0x00 (0000ms, 0815ms total)
T1C04 002:707 JLINK_SetBPEx(Addr = 0x20000000, Type = 0xFFFFFFF2)  returns 0x00000008 (0000ms, 0815ms total)
T1C04 002:707 JLINK_Go() -- CPU_ReadMem(4 bytes @ 0xE0001000) (0004ms, 0819ms total)
T1C04 002:711 JLINK_IsHalted() -- CPU_ReadMem(2 bytes @ 0x20000000)  returns TRUE (0006ms, 0825ms total)
T1C04 002:717 JLINK_ReadReg(R15 (PC))  returns 0x20000000 (0000ms, 0819ms total)
T1C04 002:717 JLINK_ClrBPEx(BPHandle = 0x00000008)  returns 0x00 (0000ms, 0819ms total)
T1C04 002:717 JLINK_ReadReg(R0)  returns 0x00000001 (0000ms, 0819ms total)
T1C04 002:717 JLINK_WriteReg(R0, 0x0800C000)  returns 0x00 (0000ms, 0819ms total)
T1C04 002:717 JLINK_WriteReg(R1, 0x00004000)  returns 0x00 (0000ms, 0819ms total)
T1C04 002:717 JLINK_WriteReg(R2, 0x000000FF)  returns 0x00 (0000ms, 0819ms total)
T1C04 002:717 JLINK_WriteReg(R3, 0x00000000)  returns 0x00 (0000ms, 0819ms total)
T1C04 002:717 JLINK_WriteReg(R4, 0x00000000)  returns 0x00 (0000ms, 0819ms total)
T1C04 002:717 JLINK_WriteReg(R5, 0x00000000)  returns 0x00 (0000ms, 0819ms total)
T1C04 002:717 JLINK_WriteReg(R6, 0x00000000)  returns 0x00 (0000ms, 0819ms total)
T1C04 002:717 JLINK_WriteReg(R7, 0x00000000)  returns 0x00 (0000ms, 0819ms total)
T1C04 002:717 JLINK_WriteReg(R8, 0x00000000)  returns 0x00 (0000ms, 0819ms total)
T1C04 002:717 JLINK_WriteReg(R9, 0x2000017C)  returns 0x00 (0000ms, 0819ms total)
T1C04 002:717 JLINK_WriteReg(R10, 0x00000000)  returns 0x00 (0000ms, 0819ms total)
T1C04 002:717 JLINK_WriteReg(R11, 0x00000000)  returns 0x00 (0000ms, 0819ms total)
T1C04 002:717 JLINK_WriteReg(R12, 0x00000000)  returns 0x00 (0000ms, 0819ms total)
T1C04 002:717 JLINK_WriteReg(R13 (SP), 0x20000800)  returns 0x00 (0000ms, 0819ms total)
T1C04 002:717 JLINK_WriteReg(R14, 0x20000001)  returns 0x00 (0000ms, 0819ms total)
T1C04 002:717 JLINK_WriteReg(R15 (PC), 0x200000BC)  returns 0x00 (0000ms, 0819ms total)
T1C04 002:717 JLINK_WriteReg(XPSR, 0x01000000)  returns 0x00 (0000ms, 0819ms total)
T1C04 002:717 JLINK_WriteReg(MSP, 0x20000800)  returns 0x00 (0000ms, 0819ms total)
T1C04 002:717 JLINK_WriteReg(PSP, 0x20000800)  returns 0x00 (0000ms, 0819ms total)
T1C04 002:717 JLINK_WriteReg(CFBP, 0x00000000)  returns 0x00 (0000ms, 0819ms total)
T1C04 002:717 JLINK_SetBPEx(Addr = 0x20000000, Type = 0xFFFFFFF2)  returns 0x00000009 (0000ms, 0819ms total)
T1C04 002:717 JLINK_Go() -- CPU_ReadMem(4 bytes @ 0xE0001000) (0003ms, 0822ms total)
T1C04 002:720 JLINK_IsHalted()  returns FALSE (0002ms, 0824ms total)
T1C04 002:772 JLINK_IsHalted()  returns FALSE (0001ms, 0823ms total)
T1C04 002:823 JLINK_IsHalted()  returns FALSE (0001ms, 0823ms total)
T1C04 002:874 JLINK_IsHalted()  returns FALSE (0001ms, 0823ms total)
T1C04 002:925 JLINK_IsHalted()  returns FALSE (0001ms, 0823ms total)
T1C04 002:976 JLINK_IsHalted()  returns FALSE (0001ms, 0823ms total)
T1C04 003:027 JLINK_IsHalted()  returns FALSE (0001ms, 0823ms total)
T1C04 003:078 JLINK_IsHalted() -- CPU_ReadMem(2 bytes @ 0x20000000)  returns TRUE (0005ms, 0827ms total)
T1C04 003:083 JLINK_ReadReg(R15 (PC))  returns 0x20000000 (0000ms, 0822ms total)
T1C04 003:083 JLINK_ClrBPEx(BPHandle = 0x00000009)  returns 0x00 (0000ms, 0822ms total)
T1C04 003:083 JLINK_ReadReg(R0)  returns 0x00000000 (0000ms, 0822ms total)
T1C04 003:083 JLINK_WriteReg(R0, 0x00000001)  returns 0x00 (0000ms, 0822ms total)
T1C04 003:083 JLINK_WriteReg(R1, 0x00004000)  returns 0x00 (0001ms, 0823ms total)
T1C04 003:084 JLINK_WriteReg(R2, 0x000000FF)  returns 0x00 (0000ms, 0823ms total)
T1C04 003:084 JLINK_WriteReg(R3, 0x00000000)  returns 0x00 (0000ms, 0823ms total)
T1C04 003:084 JLINK_WriteReg(R4, 0x00000000)  returns 0x00 (0000ms, 0823ms total)
T1C04 003:084 JLINK_WriteReg(R5, 0x00000000)  returns 0x00 (0000ms, 0823ms total)
T1C04 003:084 JLINK_WriteReg(R6, 0x00000000)  returns 0x00 (0000ms, 0823ms total)
T1C04 003:084 JLINK_WriteReg(R7, 0x00000000)  returns 0x00 (0000ms, 0823ms total)
T1C04 003:084 JLINK_WriteReg(R8, 0x00000000)  returns 0x00 (0000ms, 0823ms total)
T1C04 003:084 JLINK_WriteReg(R9, 0x2000017C)  returns 0x00 (0000ms, 0823ms total)
T1C04 003:084 JLINK_WriteReg(R10, 0x00000000)  returns 0x00 (0000ms, 0823ms total)
T1C04 003:084 JLINK_WriteReg(R11, 0x00000000)  returns 0x00 (0000ms, 0823ms total)
T1C04 003:084 JLINK_WriteReg(R12, 0x00000000)  returns 0x00 (0000ms, 0823ms total)
T1C04 003:084 JLINK_WriteReg(R13 (SP), 0x20000800)  returns 0x00 (0000ms, 0823ms total)
T1C04 003:084 JLINK_WriteReg(R14, 0x20000001)  returns 0x00 (0000ms, 0823ms total)
T1C04 003:084 JLINK_WriteReg(R15 (PC), 0x20000082)  returns 0x00 (0000ms, 0823ms total)
T1C04 003:084 JLINK_WriteReg(XPSR, 0x01000000)  returns 0x00 (0000ms, 0823ms total)
T1C04 003:084 JLINK_WriteReg(MSP, 0x20000800)  returns 0x00 (0000ms, 0823ms total)
T1C04 003:084 JLINK_WriteReg(PSP, 0x20000800)  returns 0x00 (0000ms, 0823ms total)
T1C04 003:084 JLINK_WriteReg(CFBP, 0x00000000)  returns 0x00 (0000ms, 0823ms total)
T1C04 003:084 JLINK_SetBPEx(Addr = 0x20000000, Type = 0xFFFFFFF2)  returns 0x0000000A (0000ms, 0823ms total)
T1C04 003:084 JLINK_Go() -- CPU_ReadMem(4 bytes @ 0xE0001000) (0004ms, 0827ms total)
T1C04 003:088 JLINK_IsHalted() -- CPU_ReadMem(2 bytes @ 0x20000000)  returns TRUE (0006ms, 0833ms total)
T1C04 003:094 JLINK_ReadReg(R15 (PC))  returns 0x20000000 (0000ms, 0827ms total)
T1C04 003:094 JLINK_ClrBPEx(BPHandle = 0x0000000A)  returns 0x00 (0000ms, 0827ms total)
T1C04 003:094 JLINK_ReadReg(R0)  returns 0x00000000 (0000ms, 0827ms total)
T1C04 003:147 JLINK_WriteMem(0x20000000, 0x0180 Bytes, ...) - Data: 00 BE 0A E0 0D 78 2D 06 68 40 08 24 40 00 00 D3 ... -- CPU_WriteMem(384 bytes @ 0x20000000)  returns 0x180 (0006ms, 0833ms total)
T1C04 003:153 JLINK_WriteReg(R0, 0x08000000)  returns 0x00 (0000ms, 0833ms total)
T1C04 003:153 JLINK_WriteReg(R1, 0x007A1200)  returns 0x00 (0000ms, 0833ms total)
T1C04 003:153 JLINK_WriteReg(R2, 0x00000002)  returns 0x00 (0000ms, 0833ms total)
T1C04 003:153 JLINK_WriteReg(R3, 0x00000000)  returns 0x00 (0000ms, 0833ms total)
T1C04 003:153 JLINK_WriteReg(R4, 0x00000000)  returns 0x00 (0000ms, 0833ms total)
T1C04 003:153 JLINK_WriteReg(R5, 0x00000000)  returns 0x00 (0000ms, 0833ms total)
T1C04 003:153 JLINK_WriteReg(R6, 0x00000000)  returns 0x00 (0000ms, 0833ms total)
T1C04 003:153 JLINK_WriteReg(R7, 0x00000000)  returns 0x00 (0000ms, 0833ms total)
T1C04 003:153 JLINK_WriteReg(R8, 0x00000000)  returns 0x00 (0000ms, 0833ms total)
T1C04 003:153 JLINK_WriteReg(R9, 0x2000017C)  returns 0x00 (0000ms, 0833ms total)
T1C04 003:153 JLINK_WriteReg(R10, 0x00000000)  returns 0x00 (0000ms, 0833ms total)
T1C04 003:153 JLINK_WriteReg(R11, 0x00000000)  returns 0x00 (0000ms, 0833ms total)
T1C04 003:153 JLINK_WriteReg(R12, 0x00000000)  returns 0x00 (0000ms, 0833ms total)
T1C04 003:153 JLINK_WriteReg(R13 (SP), 0x20000800)  returns 0x00 (0000ms, 0833ms total)
T1C04 003:153 JLINK_WriteReg(R14, 0x20000001)  returns 0x00 (0000ms, 0833ms total)
T1C04 003:153 JLINK_WriteReg(R15 (PC), 0x20000054)  returns 0x00 (0000ms, 0833ms total)
T1C04 003:153 JLINK_WriteReg(XPSR, 0x01000000)  returns 0x00 (0000ms, 0833ms total)
T1C04 003:153 JLINK_WriteReg(MSP, 0x20000800)  returns 0x00 (0000ms, 0833ms total)
T1C04 003:153 JLINK_WriteReg(PSP, 0x20000800)  returns 0x00 (0000ms, 0833ms total)
T1C04 003:153 JLINK_WriteReg(CFBP, 0x00000000)  returns 0x00 (0000ms, 0833ms total)
T1C04 003:153 JLINK_SetBPEx(Addr = 0x20000000, Type = 0xFFFFFFF2) -- CPU_ReadMem(2 bytes @ 0x20000000)  returns 0x0000000B (0002ms, 0835ms total)
T1C04 003:155 JLINK_Go() -- CPU_WriteMem(2 bytes @ 0x20000000) -- CPU_ReadMem(4 bytes @ 0xE0001000) (0004ms, 0839ms total)
T1C04 003:159 JLINK_IsHalted() -- CPU_ReadMem(2 bytes @ 0x20000000)  returns TRUE (0006ms, 0845ms total)
T1C04 003:165 JLINK_ReadReg(R15 (PC))  returns 0x20000000 (0000ms, 0839ms total)
T1C04 003:165 JLINK_ClrBPEx(BPHandle = 0x0000000B)  returns 0x00 (0000ms, 0839ms total)
T1C04 003:165 JLINK_ReadReg(R0)  returns 0x00000000 (0000ms, 0839ms total)
T1C04 003:165 JLINK_WriteMem(0x20000180, 0x0400 Bytes, ...) - Data: F0 72 01 20 BD A2 00 08 89 13 00 08 8B 13 00 08 ... -- CPU_WriteMem(1024 bytes @ 0x20000180)  returns 0x400 (0013ms, 0852ms total)
T1C04 003:178 JLINK_WriteReg(R0, 0x08000000)  returns 0x00 (0000ms, 0852ms total)
T1C04 003:178 JLINK_WriteReg(R1, 0x00000400)  returns 0x00 (0000ms, 0852ms total)
T1C04 003:178 JLINK_WriteReg(R2, 0x20000180)  returns 0x00 (0000ms, 0852ms total)
T1C04 003:178 JLINK_WriteReg(R3, 0x00000000)  returns 0x00 (0000ms, 0852ms total)
T1C04 003:178 JLINK_WriteReg(R4, 0x00000000)  returns 0x00 (0000ms, 0852ms total)
T1C04 003:178 JLINK_WriteReg(R5, 0x00000000)  returns 0x00 (0000ms, 0852ms total)
T1C04 003:178 JLINK_WriteReg(R6, 0x00000000)  returns 0x00 (0000ms, 0852ms total)
T1C04 003:178 JLINK_WriteReg(R7, 0x00000000)  returns 0x00 (0000ms, 0852ms total)
T1C04 003:178 JLINK_WriteReg(R8, 0x00000000)  returns 0x00 (0000ms, 0852ms total)
T1C04 003:178 JLINK_WriteReg(R9, 0x2000017C)  returns 0x00 (0000ms, 0852ms total)
T1C04 003:178 JLINK_WriteReg(R10, 0x00000000)  returns 0x00 (0000ms, 0852ms total)
T1C04 003:178 JLINK_WriteReg(R11, 0x00000000)  returns 0x00 (0000ms, 0852ms total)
T1C04 003:178 JLINK_WriteReg(R12, 0x00000000)  returns 0x00 (0000ms, 0852ms total)
T1C04 003:178 JLINK_WriteReg(R13 (SP), 0x20000800)  returns 0x00 (0000ms, 0852ms total)
T1C04 003:178 JLINK_WriteReg(R14, 0x20000001)  returns 0x00 (0000ms, 0852ms total)
T1C04 003:178 JLINK_WriteReg(R15 (PC), 0x20000108)  returns 0x00 (0000ms, 0852ms total)
T1C04 003:178 JLINK_WriteReg(XPSR, 0x01000000)  returns 0x00 (0001ms, 0853ms total)
T1C04 003:179 JLINK_WriteReg(MSP, 0x20000800)  returns 0x00 (0000ms, 0853ms total)
T1C04 003:179 JLINK_WriteReg(PSP, 0x20000800)  returns 0x00 (0000ms, 0853ms total)
T1C04 003:179 JLINK_WriteReg(CFBP, 0x00000000)  returns 0x00 (0000ms, 0853ms total)
T1C04 003:179 JLINK_SetBPEx(Addr = 0x20000000, Type = 0xFFFFFFF2)  returns 0x0000000C (0000ms, 0853ms total)
T1C04 003:179 JLINK_Go() -- CPU_ReadMem(4 bytes @ 0xE0001000) (0003ms, 0856ms total)
T1C04 003:182 JLINK_IsHalted()  returns FALSE (0002ms, 0858ms total)
T1C04 003:234 JLINK_IsHalted() -- CPU_ReadMem(2 bytes @ 0x20000000)  returns TRUE (0005ms, 0861ms total)
T1C04 003:239 JLINK_ReadReg(R15 (PC))  returns 0x20000000 (0000ms, 0856ms total)
T1C04 003:239 JLINK_ClrBPEx(BPHandle = 0x0000000C)  returns 0x00 (0000ms, 0856ms total)
T1C04 003:239 JLINK_ReadReg(R0)  returns 0x00000000 (0000ms, 0856ms total)
T1C04 003:239 JLINK_WriteMem(0x20000180, 0x0400 Bytes, ...) - Data: 95 F9 46 21 03 A8 09 F0 2C FB 00 28 DE D1 61 4F ... -- CPU_WriteMem(1024 bytes @ 0x20000180)  returns 0x400 (0014ms, 0870ms total)
T1C04 003:253 JLINK_WriteReg(R0, 0x08000400)  returns 0x00 (0000ms, 0870ms total)
T1C04 003:253 JLINK_WriteReg(R1, 0x00000400)  returns 0x00 (0000ms, 0870ms total)
T1C04 003:253 JLINK_WriteReg(R2, 0x20000180)  returns 0x00 (0000ms, 0870ms total)
T1C04 003:253 JLINK_WriteReg(R3, 0x00000000)  returns 0x00 (0000ms, 0870ms total)
T1C04 003:253 JLINK_WriteReg(R4, 0x00000000)  returns 0x00 (0000ms, 0870ms total)
T1C04 003:253 JLINK_WriteReg(R5, 0x00000000)  returns 0x00 (0000ms, 0870ms total)
T1C04 003:253 JLINK_WriteReg(R6, 0x00000000)  returns 0x00 (0000ms, 0870ms total)
T1C04 003:253 JLINK_WriteReg(R7, 0x00000000)  returns 0x00 (0000ms, 0870ms total)
T1C04 003:253 JLINK_WriteReg(R8, 0x00000000)  returns 0x00 (0000ms, 0870ms total)
T1C04 003:253 JLINK_WriteReg(R9, 0x2000017C)  returns 0x00 (0000ms, 0870ms total)
T1C04 003:253 JLINK_WriteReg(R10, 0x00000000)  returns 0x00 (0000ms, 0870ms total)
T1C04 003:253 JLINK_WriteReg(R11, 0x00000000)  returns 0x00 (0000ms, 0870ms total)
T1C04 003:253 JLINK_WriteReg(R12, 0x00000000)  returns 0x00 (0000ms, 0870ms total)
T1C04 003:253 JLINK_WriteReg(R13 (SP), 0x20000800)  returns 0x00 (0000ms, 0870ms total)
T1C04 003:253 JLINK_WriteReg(R14, 0x20000001)  returns 0x00 (0000ms, 0870ms total)
T1C04 003:253 JLINK_WriteReg(R15 (PC), 0x20000108)  returns 0x00 (0000ms, 0870ms total)
T1C04 003:253 JLINK_WriteReg(XPSR, 0x01000000)  returns 0x00 (0000ms, 0870ms total)
T1C04 003:253 JLINK_WriteReg(MSP, 0x20000800)  returns 0x00 (0000ms, 0870ms total)
T1C04 003:253 JLINK_WriteReg(PSP, 0x20000800)  returns 0x00 (0000ms, 0870ms total)
T1C04 003:253 JLINK_WriteReg(CFBP, 0x00000000)  returns 0x00 (0000ms, 0870ms total)
T1C04 003:253 JLINK_SetBPEx(Addr = 0x20000000, Type = 0xFFFFFFF2)  returns 0x0000000D (0000ms, 0870ms total)
T1C04 003:253 JLINK_Go() -- CPU_ReadMem(4 bytes @ 0xE0001000) (0004ms, 0874ms total)
T1C04 003:257 JLINK_IsHalted()  returns FALSE (0001ms, 0875ms total)
T1C04 003:308 JLINK_IsHalted() -- CPU_ReadMem(2 bytes @ 0x20000000)  returns TRUE (0005ms, 0879ms total)
T1C04 003:313 JLINK_ReadReg(R15 (PC))  returns 0x20000000 (0000ms, 0874ms total)
T1C04 003:313 JLINK_ClrBPEx(BPHandle = 0x0000000D)  returns 0x00 (0000ms, 0874ms total)
T1C04 003:313 JLINK_ReadReg(R0)  returns 0x00000000 (0000ms, 0874ms total)
T1C04 003:314 JLINK_WriteMem(0x20000180, 0x0400 Bytes, ...) - Data: CC E0 0B 2C C1 DA B0 78 31 28 05 D0 97 A0 FF F7 ... -- CPU_WriteMem(1024 bytes @ 0x20000180)  returns 0x400 (0013ms, 0887ms total)
T1C04 003:327 JLINK_WriteReg(R0, 0x08000800)  returns 0x00 (0000ms, 0887ms total)
T1C04 003:327 JLINK_WriteReg(R1, 0x00000400)  returns 0x00 (0000ms, 0887ms total)
T1C04 003:327 JLINK_WriteReg(R2, 0x20000180)  returns 0x00 (0000ms, 0887ms total)
T1C04 003:327 JLINK_WriteReg(R3, 0x00000000)  returns 0x00 (0000ms, 0887ms total)
T1C04 003:327 JLINK_WriteReg(R4, 0x00000000)  returns 0x00 (0000ms, 0887ms total)
T1C04 003:327 JLINK_WriteReg(R5, 0x00000000)  returns 0x00 (0000ms, 0887ms total)
T1C04 003:327 JLINK_WriteReg(R6, 0x00000000)  returns 0x00 (0000ms, 0887ms total)
T1C04 003:327 JLINK_WriteReg(R7, 0x00000000)  returns 0x00 (0000ms, 0887ms total)
T1C04 003:327 JLINK_WriteReg(R8, 0x00000000)  returns 0x00 (0000ms, 0887ms total)
T1C04 003:327 JLINK_WriteReg(R9, 0x2000017C)  returns 0x00 (0000ms, 0887ms total)
T1C04 003:327 JLINK_WriteReg(R10, 0x00000000)  returns 0x00 (0000ms, 0887ms total)
T1C04 003:327 JLINK_WriteReg(R11, 0x00000000)  returns 0x00 (0000ms, 0887ms total)
T1C04 003:327 JLINK_WriteReg(R12, 0x00000000)  returns 0x00 (0000ms, 0887ms total)
T1C04 003:327 JLINK_WriteReg(R13 (SP), 0x20000800)  returns 0x00 (0000ms, 0887ms total)
T1C04 003:327 JLINK_WriteReg(R14, 0x20000001)  returns 0x00 (0000ms, 0887ms total)
T1C04 003:327 JLINK_WriteReg(R15 (PC), 0x20000108)  returns 0x00 (0000ms, 0887ms total)
T1C04 003:327 JLINK_WriteReg(XPSR, 0x01000000)  returns 0x00 (0000ms, 0887ms total)
T1C04 003:327 JLINK_WriteReg(MSP, 0x20000800)  returns 0x00 (0000ms, 0887ms total)
T1C04 003:327 JLINK_WriteReg(PSP, 0x20000800)  returns 0x00 (0000ms, 0887ms total)
T1C04 003:327 JLINK_WriteReg(CFBP, 0x00000000)  returns 0x00 (0000ms, 0887ms total)
T1C04 003:327 JLINK_SetBPEx(Addr = 0x20000000, Type = 0xFFFFFFF2)  returns 0x0000000E (0000ms, 0887ms total)
T1C04 003:327 JLINK_Go() -- CPU_ReadMem(4 bytes @ 0xE0001000) (0004ms, 0891ms total)
T1C04 003:331 JLINK_IsHalted()  returns FALSE (0001ms, 0892ms total)
T1C04 003:383 JLINK_IsHalted() -- CPU_ReadMem(2 bytes @ 0x20000000)  returns TRUE (0005ms, 0896ms total)
T1C04 003:388 JLINK_ReadReg(R15 (PC))  returns 0x20000000 (0000ms, 0891ms total)
T1C04 003:388 JLINK_ClrBPEx(BPHandle = 0x0000000E)  returns 0x00 (0000ms, 0891ms total)
T1C04 003:388 JLINK_ReadReg(R0)  returns 0x00000000 (0000ms, 0891ms total)
T1C04 003:389 JLINK_WriteMem(0x20000180, 0x0400 Bytes, ...) - Data: 01 90 DB 48 02 90 03 94 04 95 05 94 06 94 28 03 ... -- CPU_WriteMem(1024 bytes @ 0x20000180)  returns 0x400 (0013ms, 0904ms total)
T1C04 003:402 JLINK_WriteReg(R0, 0x08000C00)  returns 0x00 (0000ms, 0904ms total)
T1C04 003:402 JLINK_WriteReg(R1, 0x00000400)  returns 0x00 (0000ms, 0904ms total)
T1C04 003:402 JLINK_WriteReg(R2, 0x20000180)  returns 0x00 (0000ms, 0904ms total)
T1C04 003:402 JLINK_WriteReg(R3, 0x00000000)  returns 0x00 (0000ms, 0904ms total)
T1C04 003:402 JLINK_WriteReg(R4, 0x00000000)  returns 0x00 (0000ms, 0904ms total)
T1C04 003:402 JLINK_WriteReg(R5, 0x00000000)  returns 0x00 (0000ms, 0904ms total)
T1C04 003:402 JLINK_WriteReg(R6, 0x00000000)  returns 0x00 (0000ms, 0904ms total)
T1C04 003:402 JLINK_WriteReg(R7, 0x00000000)  returns 0x00 (0000ms, 0904ms total)
T1C04 003:402 JLINK_WriteReg(R8, 0x00000000)  returns 0x00 (0000ms, 0904ms total)
T1C04 003:402 JLINK_WriteReg(R9, 0x2000017C)  returns 0x00 (0000ms, 0904ms total)
T1C04 003:402 JLINK_WriteReg(R10, 0x00000000)  returns 0x00 (0000ms, 0904ms total)
T1C04 003:402 JLINK_WriteReg(R11, 0x00000000)  returns 0x00 (0000ms, 0904ms total)
T1C04 003:402 JLINK_WriteReg(R12, 0x00000000)  returns 0x00 (0000ms, 0904ms total)
T1C04 003:402 JLINK_WriteReg(R13 (SP), 0x20000800)  returns 0x00 (0000ms, 0904ms total)
T1C04 003:402 JLINK_WriteReg(R14, 0x20000001)  returns 0x00 (0000ms, 0904ms total)
T1C04 003:402 JLINK_WriteReg(R15 (PC), 0x20000108)  returns 0x00 (0000ms, 0904ms total)
T1C04 003:402 JLINK_WriteReg(XPSR, 0x01000000)  returns 0x00 (0000ms, 0904ms total)
T1C04 003:402 JLINK_WriteReg(MSP, 0x20000800)  returns 0x00 (0000ms, 0904ms total)
T1C04 003:402 JLINK_WriteReg(PSP, 0x20000800)  returns 0x00 (0000ms, 0904ms total)
T1C04 003:402 JLINK_WriteReg(CFBP, 0x00000000)  returns 0x00 (0000ms, 0904ms total)
T1C04 003:402 JLINK_SetBPEx(Addr = 0x20000000, Type = 0xFFFFFFF2)  returns 0x0000000F (0000ms, 0904ms total)
T1C04 003:402 JLINK_Go() -- CPU_ReadMem(4 bytes @ 0xE0001000) (0004ms, 0908ms total)
T1C04 003:406 JLINK_IsHalted()  returns FALSE (0001ms, 0909ms total)
T1C04 003:457 JLINK_IsHalted() -- CPU_ReadMem(2 bytes @ 0x20000000)  returns TRUE (0006ms, 0914ms total)
T1C04 003:463 JLINK_ReadReg(R15 (PC))  returns 0x20000000 (0000ms, 0908ms total)
T1C04 003:463 JLINK_ClrBPEx(BPHandle = 0x0000000F)  returns 0x00 (0000ms, 0908ms total)
T1C04 003:463 JLINK_ReadReg(R0)  returns 0x00000000 (0000ms, 0908ms total)
T1C04 003:464 JLINK_WriteMem(0x20000180, 0x0400 Bytes, ...) - Data: 20 4D 6F 75 6E 74 20 46 61 69 6C 20 21 0D 0A 0D ... -- CPU_WriteMem(1024 bytes @ 0x20000180)  returns 0x400 (0013ms, 0921ms total)
T1C04 003:477 JLINK_WriteReg(R0, 0x08001000)  returns 0x00 (0000ms, 0921ms total)
T1C04 003:477 JLINK_WriteReg(R1, 0x00000400)  returns 0x00 (0000ms, 0921ms total)
T1C04 003:477 JLINK_WriteReg(R2, 0x20000180)  returns 0x00 (0000ms, 0921ms total)
T1C04 003:477 JLINK_WriteReg(R3, 0x00000000)  returns 0x00 (0000ms, 0921ms total)
T1C04 003:477 JLINK_WriteReg(R4, 0x00000000)  returns 0x00 (0000ms, 0921ms total)
T1C04 003:477 JLINK_WriteReg(R5, 0x00000000)  returns 0x00 (0000ms, 0921ms total)
T1C04 003:477 JLINK_WriteReg(R6, 0x00000000)  returns 0x00 (0000ms, 0921ms total)
T1C04 003:477 JLINK_WriteReg(R7, 0x00000000)  returns 0x00 (0000ms, 0921ms total)
T1C04 003:477 JLINK_WriteReg(R8, 0x00000000)  returns 0x00 (0000ms, 0921ms total)
T1C04 003:477 JLINK_WriteReg(R9, 0x2000017C)  returns 0x00 (0000ms, 0921ms total)
T1C04 003:477 JLINK_WriteReg(R10, 0x00000000)  returns 0x00 (0000ms, 0921ms total)
T1C04 003:477 JLINK_WriteReg(R11, 0x00000000)  returns 0x00 (0000ms, 0921ms total)
T1C04 003:477 JLINK_WriteReg(R12, 0x00000000)  returns 0x00 (0000ms, 0921ms total)
T1C04 003:477 JLINK_WriteReg(R13 (SP), 0x20000800)  returns 0x00 (0000ms, 0921ms total)
T1C04 003:477 JLINK_WriteReg(R14, 0x20000001)  returns 0x00 (0000ms, 0921ms total)
T1C04 003:477 JLINK_WriteReg(R15 (PC), 0x20000108)  returns 0x00 (0000ms, 0921ms total)
T1C04 003:477 JLINK_WriteReg(XPSR, 0x01000000)  returns 0x00 (0000ms, 0921ms total)
T1C04 003:477 JLINK_WriteReg(MSP, 0x20000800)  returns 0x00 (0000ms, 0921ms total)
T1C04 003:477 JLINK_WriteReg(PSP, 0x20000800)  returns 0x00 (0000ms, 0921ms total)
T1C04 003:477 JLINK_WriteReg(CFBP, 0x00000000)  returns 0x00 (0000ms, 0921ms total)
T1C04 003:477 JLINK_SetBPEx(Addr = 0x20000000, Type = 0xFFFFFFF2)  returns 0x00000010 (0000ms, 0921ms total)
T1C04 003:477 JLINK_Go() -- CPU_ReadMem(4 bytes @ 0xE0001000) (0004ms, 0925ms total)
T1C04 003:481 JLINK_IsHalted()  returns FALSE (0001ms, 0926ms total)
T1C04 003:532 JLINK_IsHalted() -- CPU_ReadMem(2 bytes @ 0x20000000)  returns TRUE (0006ms, 0931ms total)
T1C04 003:538 JLINK_ReadReg(R15 (PC))  returns 0x20000000 (0000ms, 0925ms total)
T1C04 003:538 JLINK_ClrBPEx(BPHandle = 0x00000010)  returns 0x00 (0000ms, 0925ms total)
T1C04 003:538 JLINK_ReadReg(R0)  returns 0x00000000 (0000ms, 0925ms total)
T1C04 003:538 JLINK_WriteMem(0x20000180, 0x0400 Bytes, ...) - Data: 01 68 41 F4 80 41 01 60 44 48 08 30 01 68 01 60 ... -- CPU_WriteMem(1024 bytes @ 0x20000180)  returns 0x400 (0013ms, 0938ms total)
T1C04 003:551 JLINK_WriteReg(R0, 0x08001400)  returns 0x00 (0000ms, 0938ms total)
T1C04 003:551 JLINK_WriteReg(R1, 0x00000400)  returns 0x00 (0000ms, 0938ms total)
T1C04 003:551 JLINK_WriteReg(R2, 0x20000180)  returns 0x00 (0000ms, 0938ms total)
T1C04 003:551 JLINK_WriteReg(R3, 0x00000000)  returns 0x00 (0000ms, 0938ms total)
T1C04 003:551 JLINK_WriteReg(R4, 0x00000000)  returns 0x00 (0000ms, 0938ms total)
T1C04 003:551 JLINK_WriteReg(R5, 0x00000000)  returns 0x00 (0000ms, 0938ms total)
T1C04 003:551 JLINK_WriteReg(R6, 0x00000000)  returns 0x00 (0000ms, 0938ms total)
T1C04 003:551 JLINK_WriteReg(R7, 0x00000000)  returns 0x00 (0000ms, 0938ms total)
T1C04 003:551 JLINK_WriteReg(R8, 0x00000000)  returns 0x00 (0000ms, 0938ms total)
T1C04 003:551 JLINK_WriteReg(R9, 0x2000017C)  returns 0x00 (0000ms, 0938ms total)
T1C04 003:551 JLINK_WriteReg(R10, 0x00000000)  returns 0x00 (0000ms, 0938ms total)
T1C04 003:551 JLINK_WriteReg(R11, 0x00000000)  returns 0x00 (0000ms, 0938ms total)
T1C04 003:551 JLINK_WriteReg(R12, 0x00000000)  returns 0x00 (0000ms, 0938ms total)
T1C04 003:551 JLINK_WriteReg(R13 (SP), 0x20000800)  returns 0x00 (0000ms, 0938ms total)
T1C04 003:551 JLINK_WriteReg(R14, 0x20000001)  returns 0x00 (0000ms, 0938ms total)
T1C04 003:552 JLINK_WriteReg(R15 (PC), 0x20000108)  returns 0x00 (0000ms, 0939ms total)
T1C04 003:552 JLINK_WriteReg(XPSR, 0x01000000)  returns 0x00 (0000ms, 0939ms total)
T1C04 003:552 JLINK_WriteReg(MSP, 0x20000800)  returns 0x00 (0000ms, 0939ms total)
T1C04 003:552 JLINK_WriteReg(PSP, 0x20000800)  returns 0x00 (0000ms, 0939ms total)
T1C04 003:552 JLINK_WriteReg(CFBP, 0x00000000)  returns 0x00 (0000ms, 0939ms total)
T1C04 003:552 JLINK_SetBPEx(Addr = 0x20000000, Type = 0xFFFFFFF2)  returns 0x00000011 (0000ms, 0939ms total)
T1C04 003:552 JLINK_Go() -- CPU_ReadMem(4 bytes @ 0xE0001000) (0003ms, 0942ms total)
T1C04 003:555 JLINK_IsHalted()  returns FALSE (0001ms, 0943ms total)
T1C04 003:606 JLINK_IsHalted() -- CPU_ReadMem(2 bytes @ 0x20000000)  returns TRUE (0005ms, 0947ms total)
T1C04 003:611 JLINK_ReadReg(R15 (PC))  returns 0x20000000 (0000ms, 0942ms total)
T1C04 003:611 JLINK_ClrBPEx(BPHandle = 0x00000011)  returns 0x00 (0000ms, 0942ms total)
T1C04 003:611 JLINK_ReadReg(R0)  returns 0x00000000 (0000ms, 0942ms total)
